
T15BC 000:031 SEGGER J-Link V6.00e Log File (0000ms, 0013ms total)
T15BC 000:031 DLL Compiled: Aug  4 2016 09:37:38 (0001ms, 0014ms total)
T15BC 000:031 Logging started @ 2017-11-12 13:15 (0001ms, 0014ms total)
T15BC 000:032 JLINK_SetWarnOutHandler(...) (0000ms, 0014ms total)
T15BC 000:032 JLINK_OpenEx(...)
Firmware: J-Link ARM-OB STM32 compiled Aug 22 2012 19:52:04
Hardware: V7.00
S/N: 20090928
Feature(s): RDI,FlashDL,FlashBP,JFlash,GDBFull  returns O.K. (0007ms, 0021ms total)
T15BC 000:039 JLINK_SetErrorOutHandler(...) (0000ms, 0021ms total)
T15BC 000:039 JLINK_ExecCommand("ProjectFile = "C:\Users\shell\Desktop\Ö¸ÎÆ£¨ÐÂ£©\stm32f1_Uc3\JLinkSettings.ini"", ...).   returns 0x00 (0119ms, 0140ms total)
T15BC 000:161 JLINK_ExecCommand("Device = STM32F103VE", ...). Device "STM32F103VE" selected.  returns 0x00 (0003ms, 0143ms total)
T15BC 000:164 JLINK_ExecCommand("DisableConnectionTimeout", ...).   returns 0x01 (0000ms, 0143ms total)
T15BC 000:164 JLINK_GetHardwareVersion()  returns 0x11170 (0000ms, 0143ms total)
T15BC 000:164 JLINK_GetDLLVersion()  returns 60005 (0000ms, 0143ms total)
T15BC 000:164 JLINK_GetFirmwareString(...) (0000ms, 0143ms total)
T15BC 000:172 JLINK_GetDLLVersion()  returns 60005 (0000ms, 0143ms total)
T15BC 000:172 JLINK_GetCompileDateTime() (0000ms, 0143ms total)
T15BC 000:174 JLINK_GetFirmwareString(...) (0000ms, 0143ms total)
T15BC 000:176 JLINK_GetHardwareVersion()  returns 0x11170 (0000ms, 0143ms total)
T15BC 000:183 JLINK_TIF_Select(JLINKARM_TIF_SWD)  returns 0x00 (0001ms, 0144ms total)
T15BC 000:184 JLINK_SetSpeed(500) (0000ms, 0144ms total)
T15BC 000:184 JLINK_GetId() >0x108 TIF>Found SWD-DP with ID 0x1BA01477 >0x0D TIF> >0x28 TIF> >0x0D TIF> >0x28 TIF> >0x0D TIF> >0x28 TIF> >0x0D TIF> >0x28 TIF> >0x0D TIF> >0x21 TIF> >0x0D TIF> >0x28 TIF> >0x0D TIF> >0x28 TIF> >0x0D TIF> >0x28 TIF> >0x0D TIF> >0x21 TIF> >0x0D TIF> >0x21 TIF> >0x0D TIF> >0x28 TIF> >0x0D TIF> >0x21 TIF> >0x0D TIF> >0x21 TIF> >0x0D TIF> >0x28 TIF> >0x0D TIF> >0x21 TIF> >0x0D TIF> >0x21 TIF> >0x0D TIF> >0x28 TIF> >0x0D TIF> >0x21 TIF> >0x0D TIF> >0x21 TIF> >0x0D TIF>
 >0x28 TIF> >0x0D TIF> >0x21 TIF> >0x0D TIF> >0x21 TIF> >0x0D TIF> >0x28 TIF> >0x0D TIF> >0x21 TIF> >0x0D TIF> >0x21 TIF> >0x0D TIF> >0x28 TIF> >0x0D TIF> >0x21 TIF> >0x0D TIF> >0x21 TIF> >0x108 TIF>Found SWD-DP with ID 0x1BA01477 >0x0D TIF> >0x28 TIF> >0x0D TIF> >0x28 TIF> >0x0D TIF> >0x28 TIF> >0x0D TIF> >0x28 TIF> >0x0D TIF> >0x21 TIF> >0x0D TIF> >0x28 TIF> >0x0D TIF> >0x28 TIF> >0x0D TIF> >0x21 TIF> >0x0D TIF> >0x21 TIF> >0x0D TIF> >0x21 TIF>AP-IDR: 0x14770011, Type: AHB-AP >0x0D TIF> >0x28 TIF>
 >0x0D TIF> >0x28 TIF> >0x0D TIF> >0x28 TIF> >0x0D TIF> >0x21 TIF> >0x0D TIF> >0x21 TIF> >0x0D TIF> >0x28 TIF> >0x0D TIF> >0x21 TIF> >0x0D TIF> >0x21 TIF>Found Cortex-M3 r1p1, Little endian. -- CPU_ReadMem(4 bytes @ 0xE000EDF0) -- CPU_ReadMem(4 bytes @ 0xE0002000)FPUnit: 6 code (BP) slots and 2 literal slots -- CPU_ReadMem(4 bytes @ 0xE000EDFC) -- CPU_ReadMem(4 bytes @ 0xE0001000) -- CPU_WriteMem(4 bytes @ 0xE0001000) -- CPU_ReadMem(4 bytes @ 0xE000ED88) -- CPU_WriteMem(4 bytes @ 0xE000ED88)
 -- CPU_ReadMem(4 bytes @ 0xE000ED88) -- CPU_WriteMem(4 bytes @ 0xE000ED88)CoreSight components:ROMTbl 0 @ E00FF000 -- CPU_ReadMem(16 bytes @ 0xE00FF000) -- CPU_ReadMem(16 bytes @ 0xE000EFF0) -- CPU_ReadMem(16 bytes @ 0xE000EFE0)ROMTbl 0 [0]: FFF0F000, CID: B105E00D, PID: 001BB000 SCS -- CPU_ReadMem(16 bytes @ 0xE0001FF0) -- CPU_ReadMem(16 bytes @ 0xE0001FE0)ROMTbl 0 [1]: FFF02000, CID: B105E00D, PID: 001BB002 DWT -- CPU_ReadMem(16 bytes @ 0xE0002FF0) -- CPU_ReadMem(16 bytes @ 0xE0002FE0)
ROMTbl 0 [2]: FFF03000, CID: B105E00D, PID: 000BB003 FPB -- CPU_ReadMem(16 bytes @ 0xE0000FF0) -- CPU_ReadMem(16 bytes @ 0xE0000FE0)ROMTbl 0 [3]: FFF01000, CID: B105E00D, PID: 001BB001 ITM -- CPU_ReadMem(16 bytes @ 0xE00FF010) -- CPU_ReadMem(16 bytes @ 0xE0040FF0) -- CPU_ReadMem(16 bytes @ 0xE0040FE0)ROMTbl 0 [4]: FFF41000, CID: B105900D, PID: 001BB923 TPIU-Lite -- CPU_ReadMem(16 bytes @ 0xE0041FF0) -- CPU_ReadMem(16 bytes @ 0xE0041FE0)ROMTbl 0 [5]: FFF42000, CID: B105900D, PID: 101BB924 ETM-M3
 >0x0D TIF> >0x21 TIF>  returns 0x1BA01477 (0115ms, 0259ms total)
T15BC 000:299 JLINK_GetDLLVersion()  returns 60005 (0000ms, 0259ms total)
T15BC 000:299 JLINK_CORE_GetFound()  returns 0x30000FF (0000ms, 0259ms total)
T15BC 000:299 JLINK_GetDebugInfo(0x100) -- Value=0xE00FF000  returns 0x00 (0000ms, 0259ms total)
T15BC 000:301 JLINK_GetDebugInfo(0x100) -- Value=0xE00FF000  returns 0x00 (0000ms, 0259ms total)
T15BC 000:301 JLINK_GetDebugInfo(0x101) -- Value=0xE0041000  returns 0x00 (0000ms, 0259ms total)
T15BC 000:301 JLINK_GetDebugInfo(0x102) -- Value=0x00000000  returns 0x00 (0000ms, 0259ms total)
T15BC 000:301 JLINK_GetDebugInfo(0x103) -- Value=0xE0040000  returns 0x00 (0000ms, 0259ms total)
T15BC 000:301 JLINK_GetDebugInfo(0x104) -- Value=0xE0000000  returns 0x00 (0000ms, 0259ms total)
T15BC 000:301 JLINK_GetDebugInfo(0x105) -- Value=0xE0001000  returns 0x00 (0000ms, 0259ms total)
T15BC 000:301 JLINK_GetDebugInfo(0x106) -- Value=0xE0002000  returns 0x00 (0000ms, 0259ms total)
T15BC 000:301 JLINK_GetDebugInfo(0x107) -- Value=0xE000E000  returns 0x00 (0001ms, 0260ms total)
T15BC 000:302 JLINK_GetDebugInfo(0x10C) -- Value=0xE000EDF0  returns 0x00 (0000ms, 0260ms total)
T15BC 000:302 JLINK_ReadMemU32(0xE000ED00, 0x0001 Items, ...) -- CPU is running -- CPU_ReadMem(4 bytes @ 0xE000ED00) - Data: 31 C2 1F 41  returns 0x01 (0001ms, 0261ms total)
T15BC 000:303 JLINK_SetResetType(JLINKARM_RESET_TYPE_NORMAL)  returns JLINKARM_RESET_TYPE_NORMAL (0000ms, 0261ms total)
T15BC 000:303 JLINK_Reset() -- CPU is running -- CPU_WriteMem(4 bytes @ 0xE000EDF0) -- CPU is running -- CPU_WriteMem(4 bytes @ 0xE000EDFC) >0x35 TIF> -- CPU is running -- CPU_WriteMem(4 bytes @ 0xE000ED0C) -- CPU is running -- CPU_ReadMem(4 bytes @ 0xE000EDF0) -- CPU is running -- CPU_ReadMem(4 bytes @ 0xE000EDF0) -- CPU is running -- CPU_WriteMem(4 bytes @ 0xE000EDF0) -- CPU is running -- CPU_WriteMem(4 bytes @ 0xE000EDFC) -- CPU is running -- CPU_ReadMem(4 bytes @ 0xE000EDF0)
 -- CPU_WriteMem(4 bytes @ 0xE0002000) -- CPU_ReadMem(4 bytes @ 0xE000EDFC) -- CPU_ReadMem(4 bytes @ 0xE0001000) (0036ms, 0297ms total)
T15BC 000:339 JLINK_Halt()  returns 0x00 (0000ms, 0297ms total)
T15BC 000:339 JLINK_IsHalted()  returns TRUE (0000ms, 0297ms total)
T15BC 000:339 JLINK_ReadMemU32(0xE000EDF0, 0x0001 Items, ...) -- CPU_ReadMem(4 bytes @ 0xE000EDF0) - Data: 03 00 03 00  returns 0x01 (0001ms, 0298ms total)
T15BC 000:340 JLINK_WriteU32(0xE000EDF0, 0xA05F0003) -- CPU_WriteMem(4 bytes @ 0xE000EDF0)  returns 0x00 (0002ms, 0300ms total)
T15BC 000:342 JLINK_WriteU32(0xE000EDFC, 0x01000000) -- CPU_WriteMem(4 bytes @ 0xE000EDFC)  returns 0x00 (0001ms, 0301ms total)
T15BC 000:353 JLINK_GetHWStatus(...)  returns 0x00 (0000ms, 0301ms total)
T15BC 000:362 JLINK_GetNumBPUnits(Type = 0xFFFFFF00)  returns 0x06 (0000ms, 0301ms total)
T15BC 000:362 JLINK_GetNumBPUnits(Type = 0xF0)  returns 0x2000 (0000ms, 0301ms total)
T15BC 000:362 JLINK_GetNumWPUnits()  returns 0x04 (0000ms, 0301ms total)
T15BC 000:369 JLINK_GetSpeed()  returns 0x1F4 (0000ms, 0301ms total)
T15BC 000:375 JLINK_ReadMemU32(0xE000E004, 0x0001 Items, ...) -- CPU_ReadMem(4 bytes @ 0xE000E004) - Data: 01 00 00 00  returns 0x01 (0001ms, 0302ms total)
T15BC 000:376 JLINK_ReadMemU32(0xE000E004, 0x0001 Items, ...) -- CPU_ReadMem(4 bytes @ 0xE000E004) - Data: 01 00 00 00  returns 0x01 (0002ms, 0304ms total)
T15BC 000:378 JLINK_WriteMem(0xE0001000, 0x001C Bytes, ...) - Data: 01 00 00 00 00 00 00 00 00 00 00 00 00 00 00 00 ... -- CPU_WriteMem(28 bytes @ 0xE0001000)  returns 0x1C (0003ms, 0307ms total)
T15BC 000:381 JLINK_ReadMem (0xE0001000, 0x001C Bytes, ...) -- CPU_ReadMem(28 bytes @ 0xE0001000) - Data: 01 00 00 40 00 00 00 00 00 00 00 00 00 00 00 00 ...  returns 0x00 (0002ms, 0309ms total)
T15BC 000:383 JLINK_Halt()  returns 0x00 (0000ms, 0309ms total)
T15BC 000:383 JLINK_IsHalted()  returns TRUE (0000ms, 0309ms total)
T15BC 000:386 JLINK_WriteMem(0x20000000, 0x0164 Bytes, ...) - Data: 00 BE 0A E0 0D 78 2D 06 68 40 08 24 40 00 00 D3 ... -- CPU_WriteMem(356 bytes @ 0x20000000)  returns 0x164 (0018ms, 0327ms total)
T15BC 000:404 JLINK_WriteReg(R0, 0x08000000)  returns 0x00 (0000ms, 0327ms total)
T15BC 000:404 JLINK_WriteReg(R1, 0x00B71B00)  returns 0x00 (0000ms, 0327ms total)
T15BC 000:404 JLINK_WriteReg(R2, 0x00000001)  returns 0x00 (0000ms, 0327ms total)
T15BC 000:404 JLINK_WriteReg(R3, 0x00000000)  returns 0x00 (0000ms, 0327ms total)
T15BC 000:404 JLINK_WriteReg(R4, 0x00000000)  returns 0x00 (0000ms, 0327ms total)
T15BC 000:404 JLINK_WriteReg(R5, 0x00000000)  returns 0x00 (0000ms, 0327ms total)
T15BC 000:404 JLINK_WriteReg(R6, 0x00000000)  returns 0x00 (0000ms, 0327ms total)
T15BC 000:404 JLINK_WriteReg(R7, 0x00000000)  returns 0x00 (0000ms, 0327ms total)
T15BC 000:404 JLINK_WriteReg(R8, 0x00000000)  returns 0x00 (0000ms, 0327ms total)
T15BC 000:404 JLINK_WriteReg(R9, 0x20000160)  returns 0x00 (0000ms, 0327ms total)
T15BC 000:404 JLINK_WriteReg(R10, 0x00000000)  returns 0x00 (0000ms, 0327ms total)
T15BC 000:404 JLINK_WriteReg(R11, 0x00000000)  returns 0x00 (0000ms, 0327ms total)
T15BC 000:404 JLINK_WriteReg(R12, 0x00000000)  returns 0x00 (0000ms, 0327ms total)
T15BC 000:404 JLINK_WriteReg(R13 (SP), 0x20001000)  returns 0x00 (0000ms, 0327ms total)
T15BC 000:404 JLINK_WriteReg(R14, 0x20000001)  returns 0x00 (0000ms, 0327ms total)
T15BC 000:404 JLINK_WriteReg(R15 (PC), 0x20000038)  returns 0x00 (0000ms, 0327ms total)
T15BC 000:404 JLINK_WriteReg(XPSR, 0x01000000)  returns 0x00 (0000ms, 0327ms total)
T15BC 000:404 JLINK_WriteReg(MSP, 0x20001000)  returns 0x00 (0000ms, 0327ms total)
T15BC 000:404 JLINK_WriteReg(PSP, 0x20001000)  returns 0x00 (0001ms, 0328ms total)
T15BC 000:405 JLINK_WriteReg(CFBP, 0x00000000)  returns 0x00 (0000ms, 0328ms total)
T15BC 000:405 JLINK_SetBPEx(Addr = 0x20000000, Type = 0xFFFFFFF2) -- CPU_ReadMem(2 bytes @ 0x20000000)  returns 0x00000001 (0001ms, 0329ms total)
T15BC 000:406 JLINK_Go() -- CPU_WriteMem(2 bytes @ 0x20000000) -- CPU_ReadMem(4 bytes @ 0xE0001000) -- CPU_WriteMem(4 bytes @ 0xE0002008) -- CPU_WriteMem(4 bytes @ 0xE000200C) -- CPU_WriteMem(4 bytes @ 0xE0002010) -- CPU_WriteMem(4 bytes @ 0xE0002014) -- CPU_WriteMem(4 bytes @ 0xE0002018) -- CPU_WriteMem(4 bytes @ 0xE000201C) -- CPU_WriteMem(4 bytes @ 0xE0001004) (0021ms, 0350ms total)
T15BC 000:427 JLINK_IsHalted() -- CPU_ReadMem(2 bytes @ 0x20000000)  returns TRUE (0013ms, 0363ms total)
T15BC 000:440 JLINK_ReadReg(R15 (PC))  returns 0x20000000 (0000ms, 0350ms total)
T15BC 000:440 JLINK_ClrBPEx(BPHandle = 0x00000001)  returns 0x00 (0000ms, 0350ms total)
T15BC 000:440 JLINK_ReadReg(R0)  returns 0x00000000 (0000ms, 0350ms total)
T15BC 000:440 JLINK_WriteReg(R0, 0x08000000)  returns 0x00 (0000ms, 0350ms total)
T15BC 000:440 JLINK_WriteReg(R1, 0x00B71B00)  returns 0x00 (0000ms, 0350ms total)
T15BC 000:440 JLINK_WriteReg(R2, 0x00000001)  returns 0x00 (0000ms, 0350ms total)
T15BC 000:440 JLINK_WriteReg(R3, 0x00000000)  returns 0x00 (0000ms, 0350ms total)
T15BC 000:440 JLINK_WriteReg(R4, 0x00000000)  returns 0x00 (0000ms, 0350ms total)
T15BC 000:440 JLINK_WriteReg(R5, 0x00000000)  returns 0x00 (0000ms, 0350ms total)
T15BC 000:440 JLINK_WriteReg(R6, 0x00000000)  returns 0x00 (0000ms, 0350ms total)
T15BC 000:440 JLINK_WriteReg(R7, 0x00000000)  returns 0x00 (0000ms, 0350ms total)
T15BC 000:440 JLINK_WriteReg(R8, 0x00000000)  returns 0x00 (0000ms, 0350ms total)
T15BC 000:440 JLINK_WriteReg(R9, 0x20000160)  returns 0x00 (0000ms, 0350ms total)
T15BC 000:440 JLINK_WriteReg(R10, 0x00000000)  returns 0x00 (0000ms, 0350ms total)
T15BC 000:440 JLINK_WriteReg(R11, 0x00000000)  returns 0x00 (0000ms, 0350ms total)
T15BC 000:440 JLINK_WriteReg(R12, 0x00000000)  returns 0x00 (0000ms, 0350ms total)
T15BC 000:440 JLINK_WriteReg(R13 (SP), 0x20001000)  returns 0x00 (0000ms, 0350ms total)
T15BC 000:440 JLINK_WriteReg(R14, 0x20000001)  returns 0x00 (0000ms, 0350ms total)
T15BC 000:440 JLINK_WriteReg(R15 (PC), 0x2000007C)  returns 0x00 (0001ms, 0351ms total)
T15BC 000:441 JLINK_WriteReg(XPSR, 0x01000000)  returns 0x00 (0000ms, 0351ms total)
T15BC 000:441 JLINK_WriteReg(MSP, 0x20001000)  returns 0x00 (0000ms, 0351ms total)
T15BC 000:441 JLINK_WriteReg(PSP, 0x20001000)  returns 0x00 (0000ms, 0351ms total)
T15BC 000:441 JLINK_WriteReg(CFBP, 0x00000000)  returns 0x00 (0000ms, 0351ms total)
T15BC 000:441 JLINK_SetBPEx(Addr = 0x20000000, Type = 0xFFFFFFF2)  returns 0x00000002 (0000ms, 0351ms total)
T15BC 000:441 JLINK_Go() -- CPU_ReadMem(4 bytes @ 0xE0001000) (0006ms, 0357ms total)
T15BC 000:447 JLINK_IsHalted()  returns FALSE (0001ms, 0358ms total)
T15BC 000:508 JLINK_IsHalted() -- CPU_ReadMem(2 bytes @ 0x20000000)  returns TRUE (0013ms, 0370ms total)
T15BC 000:521 JLINK_ReadReg(R15 (PC))  returns 0x20000000 (0000ms, 0357ms total)
T15BC 000:521 JLINK_ClrBPEx(BPHandle = 0x00000002)  returns 0x00 (0000ms, 0357ms total)
T15BC 000:521 JLINK_ReadReg(R0)  returns 0x00000000 (0000ms, 0357ms total)
T15BC 000:572 JLINK_WriteReg(R0, 0x00000001)  returns 0x00 (0000ms, 0357ms total)
T15BC 000:572 JLINK_WriteReg(R1, 0x00B71B00)  returns 0x00 (0000ms, 0357ms total)
T15BC 000:572 JLINK_WriteReg(R2, 0x00000001)  returns 0x00 (0000ms, 0357ms total)
T15BC 000:572 JLINK_WriteReg(R3, 0x00000000)  returns 0x00 (0000ms, 0357ms total)
T15BC 000:572 JLINK_WriteReg(R4, 0x00000000)  returns 0x00 (0000ms, 0357ms total)
T15BC 000:572 JLINK_WriteReg(R5, 0x00000000)  returns 0x00 (0000ms, 0357ms total)
T15BC 000:572 JLINK_WriteReg(R6, 0x00000000)  returns 0x00 (0000ms, 0357ms total)
T15BC 000:572 JLINK_WriteReg(R7, 0x00000000)  returns 0x00 (0000ms, 0357ms total)
T15BC 000:572 JLINK_WriteReg(R8, 0x00000000)  returns 0x00 (0000ms, 0357ms total)
T15BC 000:572 JLINK_WriteReg(R9, 0x20000160)  returns 0x00 (0001ms, 0358ms total)
T15BC 000:573 JLINK_WriteReg(R10, 0x00000000)  returns 0x00 (0000ms, 0358ms total)
T15BC 000:573 JLINK_WriteReg(R11, 0x00000000)  returns 0x00 (0000ms, 0358ms total)
T15BC 000:573 JLINK_WriteReg(R12, 0x00000000)  returns 0x00 (0000ms, 0358ms total)
T15BC 000:573 JLINK_WriteReg(R13 (SP), 0x20001000)  returns 0x00 (0000ms, 0358ms total)
T15BC 000:573 JLINK_WriteReg(R14, 0x20000001)  returns 0x00 (0000ms, 0358ms total)
T15BC 000:573 JLINK_WriteReg(R15 (PC), 0x2000006A)  returns 0x00 (0000ms, 0358ms total)
T15BC 000:573 JLINK_WriteReg(XPSR, 0x01000000)  returns 0x00 (0000ms, 0358ms total)
T15BC 000:573 JLINK_WriteReg(MSP, 0x20001000)  returns 0x00 (0000ms, 0358ms total)
T15BC 000:573 JLINK_WriteReg(PSP, 0x20001000)  returns 0x00 (0000ms, 0358ms total)
T15BC 000:573 JLINK_WriteReg(CFBP, 0x00000000)  returns 0x00 (0000ms, 0358ms total)
T15BC 000:573 JLINK_SetBPEx(Addr = 0x20000000, Type = 0xFFFFFFF2)  returns 0x00000003 (0000ms, 0358ms total)
T15BC 000:573 JLINK_Go() -- CPU_ReadMem(4 bytes @ 0xE0001000) (0006ms, 0364ms total)
T15BC 000:579 JLINK_IsHalted() -- CPU_ReadMem(2 bytes @ 0x20000000)  returns TRUE (0013ms, 0377ms total)
T15BC 000:592 JLINK_ReadReg(R15 (PC))  returns 0x20000000 (0000ms, 0364ms total)
T15BC 000:592 JLINK_ClrBPEx(BPHandle = 0x00000003)  returns 0x00 (0000ms, 0364ms total)
T15BC 000:592 JLINK_ReadReg(R0)  returns 0x00000000 (0000ms, 0364ms total)
T15BC 000:597 JLINK_WriteMem(0x20000000, 0x0164 Bytes, ...) - Data: 00 BE 0A E0 0D 78 2D 06 68 40 08 24 40 00 00 D3 ... -- CPU_WriteMem(356 bytes @ 0x20000000)  returns 0x164 (0017ms, 0381ms total)
T15BC 000:614 JLINK_WriteReg(R0, 0x08000000)  returns 0x00 (0000ms, 0381ms total)
T15BC 000:614 JLINK_WriteReg(R1, 0x00B71B00)  returns 0x00 (0000ms, 0381ms total)
T15BC 000:614 JLINK_WriteReg(R2, 0x00000002)  returns 0x00 (0000ms, 0381ms total)
T15BC 000:614 JLINK_WriteReg(R3, 0x00000000)  returns 0x00 (0000ms, 0381ms total)
T15BC 000:614 JLINK_WriteReg(R4, 0x00000000)  returns 0x00 (0000ms, 0381ms total)
T15BC 000:614 JLINK_WriteReg(R5, 0x00000000)  returns 0x00 (0000ms, 0381ms total)
T15BC 000:614 JLINK_WriteReg(R6, 0x00000000)  returns 0x00 (0000ms, 0381ms total)
T15BC 000:614 JLINK_WriteReg(R7, 0x00000000)  returns 0x00 (0000ms, 0381ms total)
T15BC 000:614 JLINK_WriteReg(R8, 0x00000000)  returns 0x00 (0000ms, 0381ms total)
T15BC 000:614 JLINK_WriteReg(R9, 0x20000160)  returns 0x00 (0000ms, 0381ms total)
T15BC 000:614 JLINK_WriteReg(R10, 0x00000000)  returns 0x00 (0000ms, 0381ms total)
T15BC 000:614 JLINK_WriteReg(R11, 0x00000000)  returns 0x00 (0000ms, 0381ms total)
T15BC 000:614 JLINK_WriteReg(R12, 0x00000000)  returns 0x00 (0000ms, 0381ms total)
T15BC 000:614 JLINK_WriteReg(R13 (SP), 0x20001000)  returns 0x00 (0000ms, 0381ms total)
T15BC 000:614 JLINK_WriteReg(R14, 0x20000001)  returns 0x00 (0000ms, 0381ms total)
T15BC 000:614 JLINK_WriteReg(R15 (PC), 0x20000038)  returns 0x00 (0000ms, 0381ms total)
T15BC 000:614 JLINK_WriteReg(XPSR, 0x01000000)  returns 0x00 (0000ms, 0381ms total)
T15BC 000:614 JLINK_WriteReg(MSP, 0x20001000)  returns 0x00 (0000ms, 0381ms total)
T15BC 000:614 JLINK_WriteReg(PSP, 0x20001000)  returns 0x00 (0000ms, 0381ms total)
T15BC 000:614 JLINK_WriteReg(CFBP, 0x00000000)  returns 0x00 (0001ms, 0382ms total)
T15BC 000:615 JLINK_SetBPEx(Addr = 0x20000000, Type = 0xFFFFFFF2) -- CPU_ReadMem(2 bytes @ 0x20000000)  returns 0x00000004 (0001ms, 0383ms total)
T15BC 000:616 JLINK_Go() -- CPU_WriteMem(2 bytes @ 0x20000000) -- CPU_ReadMem(4 bytes @ 0xE0001000) (0008ms, 0391ms total)
T15BC 000:624 JLINK_IsHalted() -- CPU_ReadMem(2 bytes @ 0x20000000)  returns TRUE (0013ms, 0404ms total)
T15BC 000:637 JLINK_ReadReg(R15 (PC))  returns 0x20000000 (0000ms, 0391ms total)
T15BC 000:637 JLINK_ClrBPEx(BPHandle = 0x00000004)  returns 0x00 (0000ms, 0391ms total)
T15BC 000:637 JLINK_ReadReg(R0)  returns 0x00000000 (0000ms, 0391ms total)
T15BC 000:637 JLINK_WriteMem(0x20000164, 0x0400 Bytes, ...) - Data: D0 81 00 20 0D 02 00 08 5B 0D 00 08 87 0B 00 08 ... -- CPU_WriteMem(1024 bytes @ 0x20000164)  returns 0x400 (0046ms, 0437ms total)
T15BC 000:683 JLINK_WriteReg(R0, 0x08000000)  returns 0x00 (0001ms, 0438ms total)
T15BC 000:684 JLINK_WriteReg(R1, 0x00000400)  returns 0x00 (0000ms, 0438ms total)
T15BC 000:684 JLINK_WriteReg(R2, 0x20000164)  returns 0x00 (0000ms, 0438ms total)
T15BC 000:684 JLINK_WriteReg(R3, 0x00000000)  returns 0x00 (0000ms, 0438ms total)
T15BC 000:684 JLINK_WriteReg(R4, 0x00000000)  returns 0x00 (0000ms, 0438ms total)
T15BC 000:684 JLINK_WriteReg(R5, 0x00000000)  returns 0x00 (0000ms, 0438ms total)
T15BC 000:684 JLINK_WriteReg(R6, 0x00000000)  returns 0x00 (0000ms, 0438ms total)
T15BC 000:684 JLINK_WriteReg(R7, 0x00000000)  returns 0x00 (0000ms, 0438ms total)
T15BC 000:684 JLINK_WriteReg(R8, 0x00000000)  returns 0x00 (0000ms, 0438ms total)
T15BC 000:684 JLINK_WriteReg(R9, 0x20000160)  returns 0x00 (0000ms, 0438ms total)
T15BC 000:684 JLINK_WriteReg(R10, 0x00000000)  returns 0x00 (0000ms, 0438ms total)
T15BC 000:684 JLINK_WriteReg(R11, 0x00000000)  returns 0x00 (0000ms, 0438ms total)
T15BC 000:684 JLINK_WriteReg(R12, 0x00000000)  returns 0x00 (0000ms, 0438ms total)
T15BC 000:684 JLINK_WriteReg(R13 (SP), 0x20001000)  returns 0x00 (0000ms, 0438ms total)
T15BC 000:684 JLINK_WriteReg(R14, 0x20000001)  returns 0x00 (0000ms, 0438ms total)
T15BC 000:684 JLINK_WriteReg(R15 (PC), 0x200000F4)  returns 0x00 (0000ms, 0438ms total)
T15BC 000:684 JLINK_WriteReg(XPSR, 0x01000000)  returns 0x00 (0000ms, 0438ms total)
T15BC 000:684 JLINK_WriteReg(MSP, 0x20001000)  returns 0x00 (0000ms, 0438ms total)
T15BC 000:684 JLINK_WriteReg(PSP, 0x20001000)  returns 0x00 (0000ms, 0438ms total)
T15BC 000:684 JLINK_WriteReg(CFBP, 0x00000000)  returns 0x00 (0000ms, 0438ms total)
T15BC 000:684 JLINK_SetBPEx(Addr = 0x20000000, Type = 0xFFFFFFF2)  returns 0x00000005 (0000ms, 0438ms total)
T15BC 000:684 JLINK_Go() -- CPU_ReadMem(4 bytes @ 0xE0001000) (0007ms, 0445ms total)
T15BC 000:691 JLINK_IsHalted()  returns FALSE (0001ms, 0446ms total)
T15BC 000:705 JLINK_IsHalted()  returns FALSE (0001ms, 0446ms total)
T15BC 000:708 JLINK_IsHalted()  returns FALSE (0001ms, 0446ms total)
T15BC 000:711 JLINK_IsHalted()  returns FALSE (0001ms, 0446ms total)
T15BC 000:714 JLINK_IsHalted()  returns FALSE (0001ms, 0446ms total)
T15BC 000:717 JLINK_IsHalted()  returns FALSE (0001ms, 0446ms total)
T15BC 000:720 JLINK_IsHalted()  returns FALSE (0001ms, 0446ms total)
T15BC 000:724 JLINK_IsHalted() -- CPU_ReadMem(2 bytes @ 0x20000000)  returns TRUE (0012ms, 0457ms total)
T15BC 000:737 JLINK_ReadReg(R15 (PC))  returns 0x20000000 (0000ms, 0445ms total)
T15BC 000:737 JLINK_ClrBPEx(BPHandle = 0x00000005)  returns 0x00 (0000ms, 0445ms total)
T15BC 000:737 JLINK_ReadReg(R0)  returns 0x00000000 (0000ms, 0445ms total)
T15BC 000:737 JLINK_WriteMem(0x20000164, 0x0400 Bytes, ...) - Data: 02 C8 8C 1A 8C 43 14 EA C2 11 F9 D0 C0 1A 0A 06 ... -- CPU_WriteMem(1024 bytes @ 0x20000164)  returns 0x400 (0046ms, 0491ms total)
T15BC 000:783 JLINK_WriteReg(R0, 0x08000400)  returns 0x00 (0000ms, 0491ms total)
T15BC 000:783 JLINK_WriteReg(R1, 0x00000400)  returns 0x00 (0000ms, 0491ms total)
T15BC 000:783 JLINK_WriteReg(R2, 0x20000164)  returns 0x00 (0000ms, 0491ms total)
T15BC 000:783 JLINK_WriteReg(R3, 0x00000000)  returns 0x00 (0001ms, 0492ms total)
T15BC 000:784 JLINK_WriteReg(R4, 0x00000000)  returns 0x00 (0000ms, 0492ms total)
T15BC 000:784 JLINK_WriteReg(R5, 0x00000000)  returns 0x00 (0000ms, 0492ms total)
T15BC 000:784 JLINK_WriteReg(R6, 0x00000000)  returns 0x00 (0000ms, 0492ms total)
T15BC 000:784 JLINK_WriteReg(R7, 0x00000000)  returns 0x00 (0000ms, 0492ms total)
T15BC 000:784 JLINK_WriteReg(R8, 0x00000000)  returns 0x00 (0000ms, 0492ms total)
T15BC 000:784 JLINK_WriteReg(R9, 0x20000160)  returns 0x00 (0000ms, 0492ms total)
T15BC 000:784 JLINK_WriteReg(R10, 0x00000000)  returns 0x00 (0000ms, 0492ms total)
T15BC 000:784 JLINK_WriteReg(R11, 0x00000000)  returns 0x00 (0000ms, 0492ms total)
T15BC 000:784 JLINK_WriteReg(R12, 0x00000000)  returns 0x00 (0000ms, 0492ms total)
T15BC 000:784 JLINK_WriteReg(R13 (SP), 0x20001000)  returns 0x00 (0000ms, 0492ms total)
T15BC 000:784 JLINK_WriteReg(R14, 0x20000001)  returns 0x00 (0000ms, 0492ms total)
T15BC 000:784 JLINK_WriteReg(R15 (PC), 0x200000F4)  returns 0x00 (0000ms, 0492ms total)
T15BC 000:784 JLINK_WriteReg(XPSR, 0x01000000)  returns 0x00 (0000ms, 0492ms total)
T15BC 000:784 JLINK_WriteReg(MSP, 0x20001000)  returns 0x00 (0000ms, 0492ms total)
T15BC 000:784 JLINK_WriteReg(PSP, 0x20001000)  returns 0x00 (0000ms, 0492ms total)
T15BC 000:784 JLINK_WriteReg(CFBP, 0x00000000)  returns 0x00 (0000ms, 0492ms total)
T15BC 000:784 JLINK_SetBPEx(Addr = 0x20000000, Type = 0xFFFFFFF2)  returns 0x00000006 (0000ms, 0492ms total)
T15BC 000:784 JLINK_Go() -- CPU_ReadMem(4 bytes @ 0xE0001000) (0007ms, 0499ms total)
T15BC 000:791 JLINK_IsHalted()  returns FALSE (0001ms, 0500ms total)
T15BC 000:796 JLINK_IsHalted()  returns FALSE (0001ms, 0500ms total)
T15BC 000:804 JLINK_IsHalted()  returns FALSE (0001ms, 0500ms total)
T15BC 000:807 JLINK_IsHalted()  returns FALSE (0001ms, 0500ms total)
T15BC 000:810 JLINK_IsHalted()  returns FALSE (0001ms, 0500ms total)
T15BC 000:813 JLINK_IsHalted()  returns FALSE (0001ms, 0500ms total)
T15BC 000:816 JLINK_IsHalted()  returns FALSE (0001ms, 0500ms total)
T15BC 000:820 JLINK_IsHalted()  returns FALSE (0001ms, 0500ms total)
T15BC 000:823 JLINK_IsHalted() -- CPU_ReadMem(2 bytes @ 0x20000000)  returns TRUE (0012ms, 0511ms total)
T15BC 000:836 JLINK_ReadReg(R15 (PC))  returns 0x20000000 (0000ms, 0499ms total)
T15BC 000:836 JLINK_ClrBPEx(BPHandle = 0x00000006)  returns 0x00 (0000ms, 0499ms total)
T15BC 000:836 JLINK_ReadReg(R0)  returns 0x00000000 (0000ms, 0499ms total)
T15BC 000:836 JLINK_WriteMem(0x20000164, 0x0400 Bytes, ...) - Data: 10 B5 00 22 02 68 47 F6 F0 73 9A 43 0C 6A 8B 68 ... -- CPU_WriteMem(1024 bytes @ 0x20000164)  returns 0x400 (0046ms, 0545ms total)
T15BC 000:882 JLINK_WriteReg(R0, 0x08000800)  returns 0x00 (0000ms, 0545ms total)
T15BC 000:882 JLINK_WriteReg(R1, 0x00000400)  returns 0x00 (0000ms, 0545ms total)
T15BC 000:882 JLINK_WriteReg(R2, 0x20000164)  returns 0x00 (0000ms, 0545ms total)
T15BC 000:882 JLINK_WriteReg(R3, 0x00000000)  returns 0x00 (0000ms, 0545ms total)
T15BC 000:882 JLINK_WriteReg(R4, 0x00000000)  returns 0x00 (0001ms, 0546ms total)
T15BC 000:883 JLINK_WriteReg(R5, 0x00000000)  returns 0x00 (0000ms, 0546ms total)
T15BC 000:883 JLINK_WriteReg(R6, 0x00000000)  returns 0x00 (0000ms, 0546ms total)
T15BC 000:883 JLINK_WriteReg(R7, 0x00000000)  returns 0x00 (0000ms, 0546ms total)
T15BC 000:883 JLINK_WriteReg(R8, 0x00000000)  returns 0x00 (0000ms, 0546ms total)
T15BC 000:883 JLINK_WriteReg(R9, 0x20000160)  returns 0x00 (0000ms, 0546ms total)
T15BC 000:883 JLINK_WriteReg(R10, 0x00000000)  returns 0x00 (0000ms, 0546ms total)
T15BC 000:883 JLINK_WriteReg(R11, 0x00000000)  returns 0x00 (0000ms, 0546ms total)
T15BC 000:883 JLINK_WriteReg(R12, 0x00000000)  returns 0x00 (0000ms, 0546ms total)
T15BC 000:883 JLINK_WriteReg(R13 (SP), 0x20001000)  returns 0x00 (0000ms, 0546ms total)
T15BC 000:883 JLINK_WriteReg(R14, 0x20000001)  returns 0x00 (0000ms, 0546ms total)
T15BC 000:883 JLINK_WriteReg(R15 (PC), 0x200000F4)  returns 0x00 (0000ms, 0546ms total)
T15BC 000:883 JLINK_WriteReg(XPSR, 0x01000000)  returns 0x00 (0000ms, 0546ms total)
T15BC 000:883 JLINK_WriteReg(MSP, 0x20001000)  returns 0x00 (0000ms, 0546ms total)
T15BC 000:883 JLINK_WriteReg(PSP, 0x20001000)  returns 0x00 (0000ms, 0546ms total)
T15BC 000:883 JLINK_WriteReg(CFBP, 0x00000000)  returns 0x00 (0000ms, 0546ms total)
T15BC 000:883 JLINK_SetBPEx(Addr = 0x20000000, Type = 0xFFFFFFF2)  returns 0x00000007 (0000ms, 0546ms total)
T15BC 000:883 JLINK_Go() -- CPU_ReadMem(4 bytes @ 0xE0001000) (0007ms, 0553ms total)
T15BC 000:890 JLINK_IsHalted()  returns FALSE (0001ms, 0554ms total)
T15BC 000:895 JLINK_IsHalted()  returns FALSE (0001ms, 0554ms total)
T15BC 000:898 JLINK_IsHalted()  returns FALSE (0001ms, 0554ms total)
T15BC 000:901 JLINK_IsHalted()  returns FALSE (0001ms, 0554ms total)
T15BC 000:904 JLINK_IsHalted()  returns FALSE (0001ms, 0554ms total)
T15BC 000:910 JLINK_IsHalted()  returns FALSE (0001ms, 0554ms total)
T15BC 000:913 JLINK_IsHalted()  returns FALSE (0001ms, 0554ms total)
T15BC 000:916 JLINK_IsHalted()  returns FALSE (0001ms, 0554ms total)
T15BC 000:919 JLINK_IsHalted()  returns FALSE (0001ms, 0554ms total)
T15BC 000:927 JLINK_IsHalted() -- CPU_ReadMem(2 bytes @ 0x20000000)  returns TRUE (0012ms, 0565ms total)
T15BC 000:939 JLINK_ReadReg(R15 (PC))  returns 0x20000000 (0001ms, 0554ms total)
T15BC 000:940 JLINK_ClrBPEx(BPHandle = 0x00000007)  returns 0x00 (0000ms, 0554ms total)
T15BC 000:940 JLINK_ReadReg(R0)  returns 0x00000000 (0000ms, 0554ms total)
T15BC 000:940 JLINK_WriteMem(0x20000164, 0x0400 Bytes, ...) - Data: 60 7A 09 28 09 D1 10 23 1F A2 2C 21 00 20 00 F0 ... -- CPU_WriteMem(1024 bytes @ 0x20000164)  returns 0x400 (0046ms, 0600ms total)
T15BC 000:986 JLINK_WriteReg(R0, 0x08000C00)  returns 0x00 (0000ms, 0600ms total)
T15BC 000:986 JLINK_WriteReg(R1, 0x00000400)  returns 0x00 (0000ms, 0600ms total)
T15BC 000:986 JLINK_WriteReg(R2, 0x20000164)  returns 0x00 (0000ms, 0600ms total)
T15BC 000:986 JLINK_WriteReg(R3, 0x00000000)  returns 0x00 (0000ms, 0600ms total)
T15BC 000:986 JLINK_WriteReg(R4, 0x00000000)  returns 0x00 (0000ms, 0600ms total)
T15BC 000:986 JLINK_WriteReg(R5, 0x00000000)  returns 0x00 (0000ms, 0600ms total)
T15BC 000:986 JLINK_WriteReg(R6, 0x00000000)  returns 0x00 (0000ms, 0600ms total)
T15BC 000:986 JLINK_WriteReg(R7, 0x00000000)  returns 0x00 (0000ms, 0600ms total)
T15BC 000:986 JLINK_WriteReg(R8, 0x00000000)  returns 0x00 (0000ms, 0600ms total)
T15BC 000:986 JLINK_WriteReg(R9, 0x20000160)  returns 0x00 (0000ms, 0600ms total)
T15BC 000:986 JLINK_WriteReg(R10, 0x00000000)  returns 0x00 (0000ms, 0600ms total)
T15BC 000:986 JLINK_WriteReg(R11, 0x00000000)  returns 0x00 (0001ms, 0601ms total)
T15BC 000:987 JLINK_WriteReg(R12, 0x00000000)  returns 0x00 (0000ms, 0601ms total)
T15BC 000:987 JLINK_WriteReg(R13 (SP), 0x20001000)  returns 0x00 (0000ms, 0601ms total)
T15BC 000:987 JLINK_WriteReg(R14, 0x20000001)  returns 0x00 (0000ms, 0601ms total)
T15BC 000:987 JLINK_WriteReg(R15 (PC), 0x200000F4)  returns 0x00 (0000ms, 0601ms total)
T15BC 000:987 JLINK_WriteReg(XPSR, 0x01000000)  returns 0x00 (0000ms, 0601ms total)
T15BC 000:987 JLINK_WriteReg(MSP, 0x20001000)  returns 0x00 (0000ms, 0601ms total)
T15BC 000:987 JLINK_WriteReg(PSP, 0x20001000)  returns 0x00 (0000ms, 0601ms total)
T15BC 000:987 JLINK_WriteReg(CFBP, 0x00000000)  returns 0x00 (0000ms, 0601ms total)
T15BC 000:987 JLINK_SetBPEx(Addr = 0x20000000, Type = 0xFFFFFFF2)  returns 0x00000008 (0000ms, 0601ms total)
T15BC 000:987 JLINK_Go() -- CPU_ReadMem(4 bytes @ 0xE0001000) (0008ms, 0609ms total)
T15BC 000:995 JLINK_IsHalted()  returns FALSE (0001ms, 0610ms total)
T15BC 001:000 JLINK_IsHalted()  returns FALSE (0000ms, 0609ms total)
T15BC 001:004 JLINK_IsHalted()  returns FALSE (0001ms, 0610ms total)
T15BC 001:007 JLINK_IsHalted()  returns FALSE (0001ms, 0610ms total)
T15BC 001:010 JLINK_IsHalted()  returns FALSE (0001ms, 0610ms total)
T15BC 001:013 JLINK_IsHalted()  returns FALSE (0001ms, 0610ms total)
T15BC 001:019 JLINK_IsHalted()  returns FALSE (0001ms, 0610ms total)
T15BC 001:022 JLINK_IsHalted()  returns FALSE (0001ms, 0610ms total)
T15BC 001:025 JLINK_IsHalted() -- CPU_ReadMem(2 bytes @ 0x20000000)  returns TRUE (0012ms, 0621ms total)
T15BC 001:037 JLINK_ReadReg(R15 (PC))  returns 0x20000000 (0001ms, 0610ms total)
T15BC 001:038 JLINK_ClrBPEx(BPHandle = 0x00000008)  returns 0x00 (0000ms, 0610ms total)
T15BC 001:038 JLINK_ReadReg(R0)  returns 0x00000000 (0000ms, 0610ms total)
T15BC 001:038 JLINK_WriteMem(0x20000164, 0x0400 Bytes, ...) - Data: 3F F9 00 21 A4 20 00 F0 3B F9 00 21 A6 20 00 F0 ... -- CPU_WriteMem(1024 bytes @ 0x20000164)  returns 0x400 (0046ms, 0656ms total)
T15BC 001:085 JLINK_WriteReg(R0, 0x08001000)  returns 0x00 (0000ms, 0656ms total)
T15BC 001:085 JLINK_WriteReg(R1, 0x00000400)  returns 0x00 (0000ms, 0656ms total)
T15BC 001:085 JLINK_WriteReg(R2, 0x20000164)  returns 0x00 (0000ms, 0656ms total)
T15BC 001:085 JLINK_WriteReg(R3, 0x00000000)  returns 0x00 (0000ms, 0656ms total)
T15BC 001:085 JLINK_WriteReg(R4, 0x00000000)  returns 0x00 (0000ms, 0656ms total)
T15BC 001:085 JLINK_WriteReg(R5, 0x00000000)  returns 0x00 (0000ms, 0656ms total)
T15BC 001:085 JLINK_WriteReg(R6, 0x00000000)  returns 0x00 (0000ms, 0656ms total)
T15BC 001:085 JLINK_WriteReg(R7, 0x00000000)  returns 0x00 (0000ms, 0656ms total)
T15BC 001:085 JLINK_WriteReg(R8, 0x00000000)  returns 0x00 (0000ms, 0656ms total)
T15BC 001:085 JLINK_WriteReg(R9, 0x20000160)  returns 0x00 (0000ms, 0656ms total)
T15BC 001:085 JLINK_WriteReg(R10, 0x00000000)  returns 0x00 (0000ms, 0656ms total)
T15BC 001:085 JLINK_WriteReg(R11, 0x00000000)  returns 0x00 (0000ms, 0656ms total)
T15BC 001:085 JLINK_WriteReg(R12, 0x00000000)  returns 0x00 (0000ms, 0656ms total)
T15BC 001:085 JLINK_WriteReg(R13 (SP), 0x20001000)  returns 0x00 (0000ms, 0656ms total)
T15BC 001:085 JLINK_WriteReg(R14, 0x20000001)  returns 0x00 (0000ms, 0656ms total)
T15BC 001:085 JLINK_WriteReg(R15 (PC), 0x200000F4)  returns 0x00 (0000ms, 0656ms total)
T15BC 001:085 JLINK_WriteReg(XPSR, 0x01000000)  returns 0x00 (0000ms, 0656ms total)
T15BC 001:085 JLINK_WriteReg(MSP, 0x20001000)  returns 0x00 (0000ms, 0656ms total)
T15BC 001:085 JLINK_WriteReg(PSP, 0x20001000)  returns 0x00 (0000ms, 0656ms total)
T15BC 001:085 JLINK_WriteReg(CFBP, 0x00000000)  returns 0x00 (0000ms, 0656ms total)
T15BC 001:085 JLINK_SetBPEx(Addr = 0x20000000, Type = 0xFFFFFFF2)  returns 0x00000009 (0000ms, 0656ms total)
T15BC 001:085 JLINK_Go() -- CPU_ReadMem(4 bytes @ 0xE0001000) (0007ms, 0663ms total)
T15BC 001:092 JLINK_IsHalted()  returns FALSE (0002ms, 0665ms total)
T15BC 001:097 JLINK_IsHalted()  returns FALSE (0001ms, 0664ms total)
T15BC 001:101 JLINK_IsHalted()  returns FALSE (0001ms, 0664ms total)
T15BC 001:104 JLINK_IsHalted()  returns FALSE (0001ms, 0664ms total)
T15BC 001:107 JLINK_IsHalted()  returns FALSE (0001ms, 0664ms total)
T15BC 001:111 JLINK_IsHalted()  returns FALSE (0001ms, 0664ms total)
T15BC 001:114 JLINK_IsHalted()  returns FALSE (0001ms, 0664ms total)
T15BC 001:117 JLINK_IsHalted()  returns FALSE (0001ms, 0664ms total)
T15BC 001:120 JLINK_IsHalted()  returns FALSE (0001ms, 0664ms total)
T15BC 001:123 JLINK_IsHalted() -- CPU_ReadMem(2 bytes @ 0x20000000)  returns TRUE (0013ms, 0676ms total)
T15BC 001:136 JLINK_ReadReg(R15 (PC))  returns 0x20000000 (0000ms, 0663ms total)
T15BC 001:136 JLINK_ClrBPEx(BPHandle = 0x00000009)  returns 0x00 (0000ms, 0663ms total)
T15BC 001:136 JLINK_ReadReg(R0)  returns 0x00000000 (0000ms, 0663ms total)
T15BC 001:137 JLINK_WriteMem(0x20000164, 0x0400 Bytes, ...) - Data: 08 70 3F 49 08 70 3F 49 08 70 3F 49 08 70 3F 48 ... -- CPU_WriteMem(1024 bytes @ 0x20000164)  returns 0x400 (0046ms, 0709ms total)
T15BC 001:183 JLINK_WriteReg(R0, 0x08001400)  returns 0x00 (0000ms, 0709ms total)
T15BC 001:183 JLINK_WriteReg(R1, 0x00000400)  returns 0x00 (0000ms, 0709ms total)
T15BC 001:183 JLINK_WriteReg(R2, 0x20000164)  returns 0x00 (0000ms, 0709ms total)
T15BC 001:183 JLINK_WriteReg(R3, 0x00000000)  returns 0x00 (0000ms, 0709ms total)
T15BC 001:183 JLINK_WriteReg(R4, 0x00000000)  returns 0x00 (0000ms, 0709ms total)
T15BC 001:183 JLINK_WriteReg(R5, 0x00000000)  returns 0x00 (0000ms, 0709ms total)
T15BC 001:183 JLINK_WriteReg(R6, 0x00000000)  returns 0x00 (0000ms, 0709ms total)
T15BC 001:183 JLINK_WriteReg(R7, 0x00000000)  returns 0x00 (0000ms, 0709ms total)
T15BC 001:183 JLINK_WriteReg(R8, 0x00000000)  returns 0x00 (0000ms, 0709ms total)
T15BC 001:183 JLINK_WriteReg(R9, 0x20000160)  returns 0x00 (0000ms, 0709ms total)
T15BC 001:183 JLINK_WriteReg(R10, 0x00000000)  returns 0x00 (0000ms, 0709ms total)
T15BC 001:183 JLINK_WriteReg(R11, 0x00000000)  returns 0x00 (0000ms, 0709ms total)
T15BC 001:183 JLINK_WriteReg(R12, 0x00000000)  returns 0x00 (0000ms, 0709ms total)
T15BC 001:183 JLINK_WriteReg(R13 (SP), 0x20001000)  returns 0x00 (0000ms, 0709ms total)
T15BC 001:183 JLINK_WriteReg(R14, 0x20000001)  returns 0x00 (0000ms, 0709ms total)
T15BC 001:183 JLINK_WriteReg(R15 (PC), 0x200000F4)  returns 0x00 (0000ms, 0709ms total)
T15BC 001:183 JLINK_WriteReg(XPSR, 0x01000000)  returns 0x00 (0000ms, 0709ms total)
T15BC 001:183 JLINK_WriteReg(MSP, 0x20001000)  returns 0x00 (0000ms, 0709ms total)
T15BC 001:183 JLINK_WriteReg(PSP, 0x20001000)  returns 0x00 (0000ms, 0709ms total)
T15BC 001:183 JLINK_WriteReg(CFBP, 0x00000000)  returns 0x00 (0000ms, 0709ms total)
T15BC 001:183 JLINK_SetBPEx(Addr = 0x20000000, Type = 0xFFFFFFF2)  returns 0x0000000A (0000ms, 0709ms total)
T15BC 001:183 JLINK_Go() -- CPU_ReadMem(4 bytes @ 0xE0001000) (0007ms, 0716ms total)
T15BC 001:190 JLINK_IsHalted()  returns FALSE (0001ms, 0717ms total)
T15BC 001:196 JLINK_IsHalted()  returns FALSE (0001ms, 0717ms total)
T15BC 001:199 JLINK_IsHalted()  returns FALSE (0001ms, 0717ms total)
T15BC 001:202 JLINK_IsHalted()  returns FALSE (0001ms, 0717ms total)
T15BC 001:206 JLINK_IsHalted()  returns FALSE (0001ms, 0717ms total)
T15BC 001:209 JLINK_IsHalted()  returns FALSE (0001ms, 0717ms total)
T15BC 001:212 JLINK_IsHalted()  returns FALSE (0001ms, 0717ms total)
T15BC 001:215 JLINK_IsHalted()  returns FALSE (0001ms, 0717ms total)
T15BC 001:218 JLINK_IsHalted()  returns FALSE (0001ms, 0717ms total)
T15BC 001:221 JLINK_IsHalted() -- CPU_ReadMem(2 bytes @ 0x20000000)  returns TRUE (0012ms, 0728ms total)
T15BC 001:233 JLINK_ReadReg(R15 (PC))  returns 0x20000000 (0000ms, 0716ms total)
T15BC 001:233 JLINK_ClrBPEx(BPHandle = 0x0000000A)  returns 0x00 (0000ms, 0716ms total)
T15BC 001:233 JLINK_ReadReg(R0)  returns 0x00000000 (0000ms, 0716ms total)
T15BC 001:234 JLINK_WriteMem(0x20000164, 0x0400 Bytes, ...) - Data: 00 BF 00 BF 45 F2 C2 60 28 80 00 20 E8 E7 E6 68 ... -- CPU_WriteMem(1024 bytes @ 0x20000164)  returns 0x400 (0046ms, 0762ms total)
T15BC 001:281 JLINK_WriteReg(R0, 0x08001800)  returns 0x00 (0000ms, 0762ms total)
T15BC 001:281 JLINK_WriteReg(R1, 0x00000400)  returns 0x00 (0000ms, 0762ms total)
T15BC 001:281 JLINK_WriteReg(R2, 0x20000164)  returns 0x00 (0000ms, 0762ms total)
T15BC 001:281 JLINK_WriteReg(R3, 0x00000000)  returns 0x00 (0000ms, 0762ms total)
T15BC 001:281 JLINK_WriteReg(R4, 0x00000000)  returns 0x00 (0000ms, 0762ms total)
T15BC 001:281 JLINK_WriteReg(R5, 0x00000000)  returns 0x00 (0000ms, 0762ms total)
T15BC 001:281 JLINK_WriteReg(R6, 0x00000000)  returns 0x00 (0000ms, 0762ms total)
T15BC 001:281 JLINK_WriteReg(R7, 0x00000000)  returns 0x00 (0000ms, 0762ms total)
T15BC 001:281 JLINK_WriteReg(R8, 0x00000000)  returns 0x00 (0000ms, 0762ms total)
T15BC 001:281 JLINK_WriteReg(R9, 0x20000160)  returns 0x00 (0000ms, 0762ms total)
T15BC 001:281 JLINK_WriteReg(R10, 0x00000000)  returns 0x00 (0000ms, 0762ms total)
T15BC 001:281 JLINK_WriteReg(R11, 0x00000000)  returns 0x00 (0000ms, 0762ms total)
T15BC 001:281 JLINK_WriteReg(R12, 0x00000000)  returns 0x00 (0000ms, 0762ms total)
T15BC 001:281 JLINK_WriteReg(R13 (SP), 0x20001000)  returns 0x00 (0000ms, 0762ms total)
T15BC 001:281 JLINK_WriteReg(R14, 0x20000001)  returns 0x00 (0000ms, 0762ms total)
T15BC 001:281 JLINK_WriteReg(R15 (PC), 0x200000F4)  returns 0x00 (0000ms, 0762ms total)
T15BC 001:281 JLINK_WriteReg(XPSR, 0x01000000)  returns 0x00 (0000ms, 0762ms total)
T15BC 001:281 JLINK_WriteReg(MSP, 0x20001000)  returns 0x00 (0000ms, 0762ms total)
T15BC 001:281 JLINK_WriteReg(PSP, 0x20001000)  returns 0x00 (0000ms, 0762ms total)
T15BC 001:281 JLINK_WriteReg(CFBP, 0x00000000)  returns 0x00 (0000ms, 0762ms total)
T15BC 001:281 JLINK_SetBPEx(Addr = 0x20000000, Type = 0xFFFFFFF2)  returns 0x0000000B (0000ms, 0762ms total)
T15BC 001:281 JLINK_Go() -- CPU_ReadMem(4 bytes @ 0xE0001000) (0007ms, 0769ms total)
T15BC 001:288 JLINK_IsHalted()  returns FALSE (0001ms, 0770ms total)
T15BC 001:294 JLINK_IsHalted()  returns FALSE (0001ms, 0770ms total)
T15BC 001:301 JLINK_IsHalted()  returns FALSE (0001ms, 0770ms total)
T15BC 001:304 JLINK_IsHalted()  returns FALSE (0001ms, 0770ms total)
T15BC 001:307 JLINK_IsHalted()  returns FALSE (0001ms, 0770ms total)
T15BC 001:310 JLINK_IsHalted()  returns FALSE (0001ms, 0770ms total)
T15BC 001:313 JLINK_IsHalted()  returns FALSE (0001ms, 0770ms total)
T15BC 001:318 JLINK_IsHalted() -- CPU_ReadMem(2 bytes @ 0x20000000)  returns TRUE (0012ms, 0781ms total)
T15BC 001:330 JLINK_ReadReg(R15 (PC))  returns 0x20000000 (0000ms, 0769ms total)
T15BC 001:330 JLINK_ClrBPEx(BPHandle = 0x0000000B)  returns 0x00 (0000ms, 0769ms total)
T15BC 001:330 JLINK_ReadReg(R0)  returns 0x00000000 (0000ms, 0769ms total)
T15BC 001:331 JLINK_WriteMem(0x20000164, 0x0400 Bytes, ...) - Data: 00 BF 00 BF 46 F6 63 50 28 80 00 20 A0 E7 00 BF ... -- CPU_WriteMem(1024 bytes @ 0x20000164)  returns 0x400 (0046ms, 0815ms total)
T15BC 001:377 JLINK_WriteReg(R0, 0x08001C00)  returns 0x00 (0000ms, 0815ms total)
T15BC 001:377 JLINK_WriteReg(R1, 0x00000400)  returns 0x00 (0000ms, 0815ms total)
T15BC 001:377 JLINK_WriteReg(R2, 0x20000164)  returns 0x00 (0000ms, 0815ms total)
T15BC 001:377 JLINK_WriteReg(R3, 0x00000000)  returns 0x00 (0000ms, 0815ms total)
T15BC 001:377 JLINK_WriteReg(R4, 0x00000000)  returns 0x00 (0000ms, 0815ms total)
T15BC 001:377 JLINK_WriteReg(R5, 0x00000000)  returns 0x00 (0000ms, 0815ms total)
T15BC 001:377 JLINK_WriteReg(R6, 0x00000000)  returns 0x00 (0000ms, 0815ms total)
T15BC 001:377 JLINK_WriteReg(R7, 0x00000000)  returns 0x00 (0000ms, 0815ms total)
T15BC 001:377 JLINK_WriteReg(R8, 0x00000000)  returns 0x00 (0000ms, 0815ms total)
T15BC 001:377 JLINK_WriteReg(R9, 0x20000160)  returns 0x00 (0000ms, 0815ms total)
T15BC 001:377 JLINK_WriteReg(R10, 0x00000000)  returns 0x00 (0000ms, 0815ms total)
T15BC 001:377 JLINK_WriteReg(R11, 0x00000000)  returns 0x00 (0000ms, 0815ms total)
T15BC 001:377 JLINK_WriteReg(R12, 0x00000000)  returns 0x00 (0000ms, 0815ms total)
T15BC 001:377 JLINK_WriteReg(R13 (SP), 0x20001000)  returns 0x00 (0000ms, 0815ms total)
T15BC 001:377 JLINK_WriteReg(R14, 0x20000001)  returns 0x00 (0001ms, 0816ms total)
T15BC 001:378 JLINK_WriteReg(R15 (PC), 0x200000F4)  returns 0x00 (0000ms, 0816ms total)
T15BC 001:378 JLINK_WriteReg(XPSR, 0x01000000)  returns 0x00 (0000ms, 0816ms total)
T15BC 001:378 JLINK_WriteReg(MSP, 0x20001000)  returns 0x00 (0000ms, 0816ms total)
T15BC 001:378 JLINK_WriteReg(PSP, 0x20001000)  returns 0x00 (0000ms, 0816ms total)
T15BC 001:378 JLINK_WriteReg(CFBP, 0x00000000)  returns 0x00 (0000ms, 0816ms total)
T15BC 001:378 JLINK_SetBPEx(Addr = 0x20000000, Type = 0xFFFFFFF2)  returns 0x0000000C (0000ms, 0816ms total)
T15BC 001:378 JLINK_Go() -- CPU_ReadMem(4 bytes @ 0xE0001000) (0006ms, 0822ms total)
T15BC 001:384 JLINK_IsHalted()  returns FALSE (0002ms, 0824ms total)
T15BC 001:392 JLINK_IsHalted()  returns FALSE (0001ms, 0823ms total)
T15BC 001:395 JLINK_IsHalted()  returns FALSE (0001ms, 0823ms total)
T15BC 001:398 JLINK_IsHalted()  returns FALSE (0001ms, 0823ms total)
T15BC 001:401 JLINK_IsHalted()  returns FALSE (0001ms, 0823ms total)
T15BC 001:404 JLINK_IsHalted()  returns FALSE (0001ms, 0823ms total)
T15BC 001:407 JLINK_IsHalted()  returns FALSE (0001ms, 0823ms total)
T15BC 001:410 JLINK_IsHalted()  returns FALSE (0001ms, 0823ms total)
T15BC 001:414 JLINK_IsHalted()  returns FALSE (0001ms, 0823ms total)
T15BC 001:417 JLINK_IsHalted() -- CPU_ReadMem(2 bytes @ 0x20000000)  returns TRUE (0012ms, 0834ms total)
T15BC 001:429 JLINK_ReadReg(R15 (PC))  returns 0x20000000 (0000ms, 0822ms total)
T15BC 001:430 JLINK_ClrBPEx(BPHandle = 0x0000000C)  returns 0x00 (0000ms, 0823ms total)
T15BC 001:430 JLINK_ReadReg(R0)  returns 0x00000000 (0000ms, 0823ms total)
T15BC 001:430 JLINK_WriteMem(0x20000164, 0x0400 Bytes, ...) - Data: 87 B0 04 46 90 46 DD E9 1B A5 DD E9 14 96 17 9F ... -- CPU_WriteMem(1024 bytes @ 0x20000164)  returns 0x400 (0046ms, 0869ms total)
T15BC 001:476 JLINK_WriteReg(R0, 0x08002000)  returns 0x00 (0000ms, 0869ms total)
T15BC 001:476 JLINK_WriteReg(R1, 0x00000400)  returns 0x00 (0000ms, 0869ms total)
T15BC 001:476 JLINK_WriteReg(R2, 0x20000164)  returns 0x00 (0000ms, 0869ms total)
T15BC 001:476 JLINK_WriteReg(R3, 0x00000000)  returns 0x00 (0000ms, 0869ms total)
T15BC 001:476 JLINK_WriteReg(R4, 0x00000000)  returns 0x00 (0000ms, 0869ms total)
T15BC 001:476 JLINK_WriteReg(R5, 0x00000000)  returns 0x00 (0000ms, 0869ms total)
T15BC 001:476 JLINK_WriteReg(R6, 0x00000000)  returns 0x00 (0000ms, 0869ms total)
T15BC 001:476 JLINK_WriteReg(R7, 0x00000000)  returns 0x00 (0000ms, 0869ms total)
T15BC 001:476 JLINK_WriteReg(R8, 0x00000000)  returns 0x00 (0000ms, 0869ms total)
T15BC 001:476 JLINK_WriteReg(R9, 0x20000160)  returns 0x00 (0000ms, 0869ms total)
T15BC 001:476 JLINK_WriteReg(R10, 0x00000000)  returns 0x00 (0001ms, 0870ms total)
T15BC 001:477 JLINK_WriteReg(R11, 0x00000000)  returns 0x00 (0000ms, 0870ms total)
T15BC 001:477 JLINK_WriteReg(R12, 0x00000000)  returns 0x00 (0000ms, 0870ms total)
T15BC 001:477 JLINK_WriteReg(R13 (SP), 0x20001000)  returns 0x00 (0000ms, 0870ms total)
T15BC 001:477 JLINK_WriteReg(R14, 0x20000001)  returns 0x00 (0000ms, 0870ms total)
T15BC 001:477 JLINK_WriteReg(R15 (PC), 0x200000F4)  returns 0x00 (0000ms, 0870ms total)
T15BC 001:477 JLINK_WriteReg(XPSR, 0x01000000)  returns 0x00 (0000ms, 0870ms total)
T15BC 001:477 JLINK_WriteReg(MSP, 0x20001000)  returns 0x00 (0000ms, 0870ms total)
T15BC 001:477 JLINK_WriteReg(PSP, 0x20001000)  returns 0x00 (0000ms, 0870ms total)
T15BC 001:477 JLINK_WriteReg(CFBP, 0x00000000)  returns 0x00 (0000ms, 0870ms total)
T15BC 001:477 JLINK_SetBPEx(Addr = 0x20000000, Type = 0xFFFFFFF2)  returns 0x0000000D (0000ms, 0870ms total)
T15BC 001:477 JLINK_Go() -- CPU_ReadMem(4 bytes @ 0xE0001000) (0007ms, 0877ms total)
T15BC 001:484 JLINK_IsHalted()  returns FALSE (0001ms, 0878ms total)
T15BC 001:495 JLINK_IsHalted()  returns FALSE (0001ms, 0878ms total)
T15BC 001:498 JLINK_IsHalted()  returns FALSE (0001ms, 0878ms total)
T15BC 001:501 JLINK_IsHalted()  returns FALSE (0001ms, 0878ms total)
T15BC 001:507 JLINK_IsHalted()  returns FALSE (0001ms, 0879ms total)
T15BC 001:510 JLINK_IsHalted()  returns FALSE (0001ms, 0879ms total)
T15BC 001:513 JLINK_IsHalted()  returns FALSE (0001ms, 0879ms total)
T15BC 001:517 JLINK_IsHalted() -- CPU_ReadMem(2 bytes @ 0x20000000)  returns TRUE (0013ms, 0891ms total)
T15BC 001:530 JLINK_ReadReg(R15 (PC))  returns 0x20000000 (0000ms, 0878ms total)
T15BC 001:530 JLINK_ClrBPEx(BPHandle = 0x0000000D)  returns 0x00 (0000ms, 0878ms total)
T15BC 001:530 JLINK_ReadReg(R0)  returns 0x00000000 (0000ms, 0878ms total)
T15BC 001:530 JLINK_WriteMem(0x20000164, 0x0400 Bytes, ...) - Data: 30 46 FD F7 2B FF 00 BF 00 BF 00 BF FF F7 48 FA ... -- CPU_WriteMem(1024 bytes @ 0x20000164)  returns 0x400 (0046ms, 0924ms total)
T15BC 001:576 JLINK_WriteReg(R0, 0x08002400)  returns 0x00 (0000ms, 0924ms total)
T15BC 001:576 JLINK_WriteReg(R1, 0x00000400)  returns 0x00 (0001ms, 0925ms total)
T15BC 001:577 JLINK_WriteReg(R2, 0x20000164)  returns 0x00 (0000ms, 0925ms total)
T15BC 001:577 JLINK_WriteReg(R3, 0x00000000)  returns 0x00 (0000ms, 0925ms total)
T15BC 001:577 JLINK_WriteReg(R4, 0x00000000)  returns 0x00 (0000ms, 0925ms total)
T15BC 001:577 JLINK_WriteReg(R5, 0x00000000)  returns 0x00 (0000ms, 0925ms total)
T15BC 001:577 JLINK_WriteReg(R6, 0x00000000)  returns 0x00 (0000ms, 0925ms total)
T15BC 001:577 JLINK_WriteReg(R7, 0x00000000)  returns 0x00 (0000ms, 0925ms total)
T15BC 001:577 JLINK_WriteReg(R8, 0x00000000)  returns 0x00 (0000ms, 0925ms total)
T15BC 001:577 JLINK_WriteReg(R9, 0x20000160)  returns 0x00 (0000ms, 0925ms total)
T15BC 001:577 JLINK_WriteReg(R10, 0x00000000)  returns 0x00 (0000ms, 0925ms total)
T15BC 001:577 JLINK_WriteReg(R11, 0x00000000)  returns 0x00 (0000ms, 0925ms total)
T15BC 001:577 JLINK_WriteReg(R12, 0x00000000)  returns 0x00 (0000ms, 0925ms total)
T15BC 001:577 JLINK_WriteReg(R13 (SP), 0x20001000)  returns 0x00 (0000ms, 0925ms total)
T15BC 001:577 JLINK_WriteReg(R14, 0x20000001)  returns 0x00 (0000ms, 0925ms total)
T15BC 001:577 JLINK_WriteReg(R15 (PC), 0x200000F4)  returns 0x00 (0000ms, 0925ms total)
T15BC 001:577 JLINK_WriteReg(XPSR, 0x01000000)  returns 0x00 (0000ms, 0925ms total)
T15BC 001:577 JLINK_WriteReg(MSP, 0x20001000)  returns 0x00 (0000ms, 0925ms total)
T15BC 001:577 JLINK_WriteReg(PSP, 0x20001000)  returns 0x00 (0000ms, 0925ms total)
T15BC 001:577 JLINK_WriteReg(CFBP, 0x00000000)  returns 0x00 (0000ms, 0925ms total)
T15BC 001:577 JLINK_SetBPEx(Addr = 0x20000000, Type = 0xFFFFFFF2)  returns 0x0000000E (0000ms, 0925ms total)
T15BC 001:577 JLINK_Go() -- CPU_ReadMem(4 bytes @ 0xE0001000) (0007ms, 0932ms total)
T15BC 001:584 JLINK_IsHalted()  returns FALSE (0001ms, 0933ms total)
T15BC 001:590 JLINK_IsHalted()  returns FALSE (0001ms, 0933ms total)
T15BC 001:593 JLINK_IsHalted()  returns FALSE (0001ms, 0933ms total)
T15BC 001:599 JLINK_IsHalted()  returns FALSE (0001ms, 0933ms total)
T15BC 001:602 JLINK_IsHalted()  returns FALSE (0001ms, 0933ms total)
T15BC 001:605 JLINK_IsHalted()  returns FALSE (0001ms, 0933ms total)
T15BC 001:610 JLINK_IsHalted()  returns FALSE (0001ms, 0933ms total)
T15BC 001:613 JLINK_IsHalted()  returns FALSE (0001ms, 0933ms total)
T15BC 001:616 JLINK_IsHalted() -- CPU_ReadMem(2 bytes @ 0x20000000)  returns TRUE (0012ms, 0944ms total)
T15BC 001:628 JLINK_ReadReg(R15 (PC))  returns 0x20000000 (0001ms, 0933ms total)
T15BC 001:629 JLINK_ClrBPEx(BPHandle = 0x0000000E)  returns 0x00 (0000ms, 0933ms total)
T15BC 001:629 JLINK_ReadReg(R0)  returns 0x00000000 (0000ms, 0933ms total)
T15BC 001:629 JLINK_WriteMem(0x20000164, 0x0400 Bytes, ...) - Data: D5 20 20 80 F3 E7 00 BF 00 BF FD F7 23 FD 82 46 ... -- CPU_WriteMem(1024 bytes @ 0x20000164)  returns 0x400 (0046ms, 0979ms total)
T15BC 001:675 JLINK_WriteReg(R0, 0x08002800)  returns 0x00 (0000ms, 0979ms total)
T15BC 001:675 JLINK_WriteReg(R1, 0x00000400)  returns 0x00 (0000ms, 0979ms total)
T15BC 001:675 JLINK_WriteReg(R2, 0x20000164)  returns 0x00 (0000ms, 0979ms total)
T15BC 001:675 JLINK_WriteReg(R3, 0x00000000)  returns 0x00 (0000ms, 0979ms total)
T15BC 001:675 JLINK_WriteReg(R4, 0x00000000)  returns 0x00 (0000ms, 0979ms total)
T15BC 001:675 JLINK_WriteReg(R5, 0x00000000)  returns 0x00 (0000ms, 0979ms total)
T15BC 001:676 JLINK_WriteReg(R6, 0x00000000)  returns 0x00 (0000ms, 0980ms total)
T15BC 001:676 JLINK_WriteReg(R7, 0x00000000)  returns 0x00 (0000ms, 0980ms total)
T15BC 001:676 JLINK_WriteReg(R8, 0x00000000)  returns 0x00 (0000ms, 0980ms total)
T15BC 001:676 JLINK_WriteReg(R9, 0x20000160)  returns 0x00 (0000ms, 0980ms total)
T15BC 001:676 JLINK_WriteReg(R10, 0x00000000)  returns 0x00 (0000ms, 0980ms total)
T15BC 001:676 JLINK_WriteReg(R11, 0x00000000)  returns 0x00 (0000ms, 0980ms total)
T15BC 001:676 JLINK_WriteReg(R12, 0x00000000)  returns 0x00 (0000ms, 0980ms total)
T15BC 001:676 JLINK_WriteReg(R13 (SP), 0x20001000)  returns 0x00 (0000ms, 0980ms total)
T15BC 001:676 JLINK_WriteReg(R14, 0x20000001)  returns 0x00 (0000ms, 0980ms total)
T15BC 001:676 JLINK_WriteReg(R15 (PC), 0x200000F4)  returns 0x00 (0000ms, 0980ms total)
T15BC 001:676 JLINK_WriteReg(XPSR, 0x01000000)  returns 0x00 (0000ms, 0980ms total)
T15BC 001:676 JLINK_WriteReg(MSP, 0x20001000)  returns 0x00 (0000ms, 0980ms total)
T15BC 001:676 JLINK_WriteReg(PSP, 0x20001000)  returns 0x00 (0000ms, 0980ms total)
T15BC 001:676 JLINK_WriteReg(CFBP, 0x00000000)  returns 0x00 (0000ms, 0980ms total)
T15BC 001:676 JLINK_SetBPEx(Addr = 0x20000000, Type = 0xFFFFFFF2)  returns 0x0000000F (0000ms, 0980ms total)
T15BC 001:676 JLINK_Go() -- CPU_ReadMem(4 bytes @ 0xE0001000) (0007ms, 0987ms total)
T15BC 001:683 JLINK_IsHalted()  returns FALSE (0001ms, 0988ms total)
T15BC 001:692 JLINK_IsHalted()  returns FALSE (0001ms, 0988ms total)
T15BC 001:695 JLINK_IsHalted()  returns FALSE (0001ms, 0988ms total)
T15BC 001:698 JLINK_IsHalted()  returns FALSE (0001ms, 0988ms total)
T15BC 001:701 JLINK_IsHalted()  returns FALSE (0001ms, 0988ms total)
T15BC 001:707 JLINK_IsHalted()  returns FALSE (0001ms, 0988ms total)
T15BC 001:710 JLINK_IsHalted()  returns FALSE (0001ms, 0988ms total)
T15BC 001:713 JLINK_IsHalted() -- CPU_ReadMem(2 bytes @ 0x20000000)  returns TRUE (0012ms, 0999ms total)
